
T0ED8 000:265 SEGGER J-Link V4.92 Log File (0000ms, 0258ms total)
T0ED8 000:265 DLL Compiled: Sep 30 2014 09:33:42 (0000ms, 0258ms total)
T0ED8 000:265 Logging started @ 2015-06-28 12:54 (0000ms, 0258ms total)
T0ED8 000:265 JLINK_SetWarnOutHandler(...) (0000ms, 0258ms total)
T0ED8 000:266 JLINK_OpenEx(...)
Firmware: J-Link OB-SAM3U128-V2-NordicSemi compiled Apr 10 2015 13:32:48
Hardware: V1.00
S/N: 681802776  returns O.K. (0255ms, 0514ms total)
T0ED8 000:521 JLINK_SetErrorOutHandler(...) (0000ms, 0514ms total)
T0ED8 000:521 JLINK_ExecCommand("ProjectFile = "E:\workspace\Keil\Nordic\Gatt_Example\JLinkSettings.ini"", ...)  returns 0x00 (0000ms, 0514ms total)
T0ED8 000:521 JLINK_ExecCommand("Device = nRF51422_xxAC", ...)Device "NRF51422_XXAC" selected (257 KB flash, 32 KB RAM).  returns 0x00 (0001ms, 0515ms total)
T0ED8 000:522 JLINK_ExecCommand("DisableConnectionTimeout", ...)  returns 0x01 (0000ms, 0515ms total)
T0ED8 000:522 JLINK_GetHardwareVersion()  returns 0x2710 (0000ms, 0515ms total)
T0ED8 000:522 JLINK_GetDLLVersion()  returns 49200 (0000ms, 0515ms total)
T0ED8 000:522 JLINK_GetFirmwareString(...) (0000ms, 0515ms total)
T0ED8 000:523 JLINK_GetDLLVersion()  returns 49200 (0000ms, 0515ms total)
T0ED8 000:523 JLINK_GetCompileDateTime() (0000ms, 0515ms total)
T0ED8 000:523 JLINK_GetFirmwareString(...) (0000ms, 0515ms total)
T0ED8 000:523 JLINK_GetHardwareVersion()  returns 0x2710 (0000ms, 0515ms total)
T0ED8 000:525 JLINK_TIF_Select(JLINKARM_TIF_SWD)  returns 0x00 (0000ms, 0515ms total)
T0ED8 000:525 JLINK_SetSpeed(20000) (0000ms, 0515ms total)
T0ED8 000:525 JLINK_GetId() >0x108 TIF>Found SWD-DP with ID 0x0BB11477 >0x35 TIF> >0x0D TIF> >0x28 TIF> >0x0D TIF> >0x28 TIF> >0x35 TIF> >0x0D TIF> >0x28 TIF> >0x35 TIF> >0x35 TIF> >0x35 TIF> >0x0D TIF> >0x28 TIF> >0x0D TIF> >0x28 TIF> >0x0D TIF> >0x28 TIF> >0x35 TIF> >0x35 TIF> >0x35 TIF> >0x0D TIF> >0x28 TIF> >0x0D TIF> >0x28 TIF> >0x35 TIF> >0x0D TIF> >0x28 TIF> >0x0D TIF> >0x28 TIF> >0x0D TIF> >0x28 TIF> >0x35 TIF> >0x35 TIF> >0x0D TIF> >0x28 TIF> >0x35 TIF> >0x35 TIF>
Found Cortex-M0 r0p0, Little endian. -- CPU_WriteMem(4 bytes @ 0xE0002000) -- CPU_ReadMem(4 bytes @ 0xE000EDF0) -- CPU_ReadMem(4 bytes @ 0xE0002000)FPUnit: 4 code (BP) slots and 0 literal slots -- CPU_ReadMem(4 bytes @ 0xE000EDFC) -- CPU_ReadMem(4 bytes @ 0xE0001000) -- CPU_WriteMem(4 bytes @ 0xE0001000) -- CPU_ReadMem(4 bytes @ 0xE00FF018) >0x35 TIF>  returns 0x0BB11477 (0011ms, 0526ms total)
T0ED8 000:536 JLINK_GetDLLVersion()  returns 49200 (0000ms, 0526ms total)
T0ED8 000:536 JLINK_CORE_GetFound()  returns 0x60000FF (0000ms, 0526ms total)
T0ED8 000:536 JLINK_ReadMem (0xE00FF000, 0x0020 Bytes, ...) -- CPU is running -- CPU_ReadMem(32 bytes @ 0xE00FF000) - Data: 03 F0 F0 FF 03 20 F0 FF 03 30 F0 FF 00 00 00 00 ...  returns 0x00 (0001ms, 0527ms total)
T0ED8 000:537 JLINK_ReadMem (0xE000EFF0, 0x0010 Bytes, ...) -- CPU is running -- CPU_ReadMem(16 bytes @ 0xE000EFF0) - Data: 0D 00 00 00 E0 00 00 00 05 00 00 00 B1 00 00 00  returns 0x00 (0001ms, 0528ms total)
T0ED8 000:538 JLINK_ReadMem (0xE000EFD0, 0x0020 Bytes, ...) -- CPU is running -- CPU_ReadMem(32 bytes @ 0xE000EFD0) - Data: 04 00 00 00 00 00 00 00 00 00 00 00 00 00 00 00 ...  returns 0x00 (0001ms, 0529ms total)
T0ED8 000:539 JLINK_ReadMem (0xE0001FF0, 0x0010 Bytes, ...) -- CPU is running -- CPU_ReadMem(16 bytes @ 0xE0001FF0) - Data: 0D 00 00 00 E0 00 00 00 05 00 00 00 B1 00 00 00  returns 0x00 (0000ms, 0529ms total)
T0ED8 000:539 JLINK_ReadMem (0xE0001FD0, 0x0020 Bytes, ...) -- CPU is running -- CPU_ReadMem(32 bytes @ 0xE0001FD0) - Data: 04 00 00 00 00 00 00 00 00 00 00 00 00 00 00 00 ...  returns 0x00 (0001ms, 0530ms total)
T0ED8 000:540 JLINK_ReadMem (0xE0002FF0, 0x0010 Bytes, ...) -- CPU is running -- CPU_ReadMem(16 bytes @ 0xE0002FF0) - Data: 0D 00 00 00 E0 00 00 00 05 00 00 00 B1 00 00 00  returns 0x00 (0001ms, 0531ms total)
T0ED8 000:541 JLINK_ReadMem (0xE0002FD0, 0x0020 Bytes, ...) -- CPU is running -- CPU_ReadMem(32 bytes @ 0xE0002FD0) - Data: 04 00 00 00 00 00 00 00 00 00 00 00 00 00 00 00 ...  returns 0x00 (0000ms, 0531ms total)
T0ED8 000:542 JLINK_ReadMemU32(0xE000ED00, 0x0001 Items, ...) -- CPU is running -- CPU_ReadMem(4 bytes @ 0xE000ED00) - Data: 00 C2 0C 41  returns 0x01 (0000ms, 0532ms total)
T0ED8 000:542 JLINK_SetResetType(JLINKARM_RESET_TYPE_NORMAL)  returns JLINKARM_RESET_TYPE_NORMAL (0000ms, 0532ms total)
T0ED8 000:542 JLINK_Reset() -- CPU is running -- CPU_WriteMem(4 bytes @ 0xE000EDF0) -- CPU is running -- CPU_WriteMem(4 bytes @ 0xE000EDFC) >0x35 TIF> -- CPU is running -- CPU_WriteMem(4 bytes @ 0xE000ED0C) -- CPU is running -- CPU_ReadMem(4 bytes @ 0xE000EDF0) -- CPU is running -- CPU_ReadMem(4 bytes @ 0xE000EDF0) -- CPU is running -- CPU_WriteMem(4 bytes @ 0xE000EDF0) -- CPU is running -- CPU_WriteMem(4 bytes @ 0xE000EDFC) -- CPU is running -- CPU_ReadMem(4 bytes @ 0xE000EDF0)
 -- CPU_WriteMem(4 bytes @ 0xE0002000) -- CPU_ReadMem(4 bytes @ 0xE000EDFC) -- CPU_ReadMem(4 bytes @ 0xE0001000) -- CPU_WriteMem(4 bytes @ 0xE0001000) (0019ms, 0551ms total)
T0ED8 000:561 JLINK_ReadReg(R15 (PC))  returns 0x000006D0 (0000ms, 0551ms total)
T0ED8 000:561 JLINK_ReadReg(XPSR)  returns 0xC1000000 (0000ms, 0551ms total)
T0ED8 000:561 JLINK_Halt()  returns 0x00 (0000ms, 0551ms total)
T0ED8 000:561 JLINK_IsHalted()  returns TRUE (0000ms, 0551ms total)
T0ED8 000:561 JLINK_ReadMemU32(0xE000EDF0, 0x0001 Items, ...) -- CPU_ReadMem(4 bytes @ 0xE000EDF0) - Data: 03 00 03 00  returns 0x01 (0001ms, 0552ms total)
T0ED8 000:562 JLINK_WriteU32(0xE000EDF0, 0xA05F0003) -- CPU_WriteMem(4 bytes @ 0xE000EDF0)  returns 0x00 (0001ms, 0553ms total)
T0ED8 000:563 JLINK_WriteU32(0xE000EDFC, 0x01000000) -- CPU_WriteMem(4 bytes @ 0xE000EDFC)  returns 0x00 (0000ms, 0553ms total)
T0ED8 000:564 JLINK_GetHWStatus(...)  returns 0x00 (0000ms, 0553ms total)
T0ED8 000:564 JLINK_GetNumBPUnits(Type = 0xFFFFFF00)  returns 0x04 (0000ms, 0553ms total)
T0ED8 000:564 JLINK_GetNumBPUnits(Type = 0xF0)  returns 0x2000 (0000ms, 0553ms total)
T0ED8 000:564 JLINK_GetNumWPUnits()  returns 0x02 (0000ms, 0553ms total)
T0ED8 000:564 JLINK_GetSpeed()  returns 0x3E8 (0000ms, 0553ms total)
T0ED8 000:565 JLINK_ReadMemU32(0xE000E004, 0x0001 Items, ...) -- CPU_ReadMem(4 bytes @ 0xE000E004) - Data: 00 00 00 00  returns 0x01 (0000ms, 0553ms total)
T0ED8 000:565 JLINK_ReadReg(R15 (PC))  returns 0x000006D0 (0000ms, 0553ms total)
T0ED8 000:565 JLINK_ReadReg(XPSR)  returns 0xC1000000 (0000ms, 0553ms total)
T0ED8 000:636 JLINK_SetResetType(JLINKARM_RESET_TYPE_NORMAL)  returns JLINKARM_RESET_TYPE_NORMAL (0000ms, 0553ms total)
T0ED8 000:636 JLINK_Reset() -- CPU_WriteMem(4 bytes @ 0xE000EDF0) -- CPU_WriteMem(4 bytes @ 0xE000EDFC) >0x35 TIF> -- CPU_WriteMem(4 bytes @ 0xE000ED0C) -- CPU_ReadMem(4 bytes @ 0xE000EDF0) -- CPU_ReadMem(4 bytes @ 0xE000EDF0) -- CPU_WriteMem(4 bytes @ 0xE000EDF0) -- CPU_WriteMem(4 bytes @ 0xE000EDFC) -- CPU is running -- CPU_ReadMem(4 bytes @ 0xE000EDF0) -- CPU_WriteMem(4 bytes @ 0xE0002000) -- CPU_ReadMem(4 bytes @ 0xE000EDFC) -- CPU_ReadMem(4 bytes @ 0xE0001000) -- CPU_WriteMem(4 bytes @ 0xE0001000)
 (0020ms, 0573ms total)
T0ED8 000:657 JLINK_ReadReg(R15 (PC))  returns 0x000006D0 (0000ms, 0573ms total)
T0ED8 000:657 JLINK_ReadReg(XPSR)  returns 0xC1000000 (0000ms, 0573ms total)
T0ED8 000:657 JLINK_ReadMem (0x000006D0, 0x003C Bytes, ...) -- CPU_ReadMem(128 bytes @ 0x000006C0) -- Updating C cache (128 bytes @ 0x000006C0) -- Read from C cache (60 bytes @ 0x000006D0) - Data: 16 49 17 4C 24 68 8C 42 0B D1 16 4B 1B 68 99 42 ...  returns 0x00 (0002ms, 0575ms total)
T1710 001:440 JLINK_SetBPEx(Addr = 0x00019ECC, Type = 0xFFFFFFF2)  returns 0x00000001 (0000ms, 0575ms total)
T1710 001:440 JLINK_SetBPEx(Addr = 0x0001958C, Type = 0xFFFFFFF2)  returns 0x00000002 (0000ms, 0575ms total)
T1710 001:440 JLINK_Go() -- CPU_WriteMem(4 bytes @ 0xE0002000) -- CPU_WriteMem(4 bytes @ 0xE0002008) -- CPU_WriteMem(4 bytes @ 0xE0002000) -- CPU_WriteMem(4 bytes @ 0xE000200C) -- CPU_WriteMem(4 bytes @ 0xE0002010) -- CPU_WriteMem(4 bytes @ 0xE0002014) -- CPU_WriteMem(4 bytes @ 0xE0001004) (0005ms, 0580ms total)
T1710 001:545 JLINK_IsHalted()  returns TRUE (0004ms, 0584ms total)
T1710 001:549 JLINK_Halt()  returns 0x00 (0000ms, 0580ms total)
T1710 001:549 JLINK_IsHalted()  returns TRUE (0000ms, 0580ms total)
T1710 001:549 JLINK_IsHalted()  returns TRUE (0000ms, 0580ms total)
T1710 001:549 JLINK_IsHalted()  returns TRUE (0000ms, 0580ms total)
T1710 001:549 JLINK_ReadReg(R15 (PC))  returns 0x00019ECC (0000ms, 0580ms total)
T1710 001:549 JLINK_ReadReg(XPSR)  returns 0x61000000 (0000ms, 0580ms total)
T1710 001:549 JLINK_ClrBPEx(BPHandle = 0x00000001)  returns 0x00 (0000ms, 0580ms total)
T1710 001:549 JLINK_ClrBPEx(BPHandle = 0x00000002)  returns 0x00 (0000ms, 0580ms total)
T1710 001:549 JLINK_ReadMemU32(0xE000ED30, 0x0001 Items, ...) -- CPU_ReadMem(4 bytes @ 0xE000ED30) - Data: 03 00 00 00  returns 0x01 (0001ms, 0581ms total)
T1710 001:550 JLINK_ReadMemU32(0xE0001028, 0x0001 Items, ...) -- CPU_ReadMem(4 bytes @ 0xE0001028) - Data: 00 00 00 00  returns 0x01 (0001ms, 0582ms total)
T1710 001:551 JLINK_ReadMemU32(0xE0001038, 0x0001 Items, ...) -- CPU_ReadMem(4 bytes @ 0xE0001038) - Data: 00 00 00 00  returns 0x01 (0000ms, 0582ms total)
T1710 001:551 JLINK_ReadReg(R0)  returns 0x00019ECD (0000ms, 0582ms total)
T1710 001:551 JLINK_ReadReg(R1)  returns 0x20003128 (0000ms, 0582ms total)
T1710 001:551 JLINK_ReadReg(R2)  returns 0x00000000 (0000ms, 0582ms total)
T1710 001:551 JLINK_ReadReg(R3)  returns 0x000184DF (0000ms, 0582ms total)
T1710 001:551 JLINK_ReadReg(R4)  returns 0x0001AAB8 (0000ms, 0582ms total)
T1710 001:551 JLINK_ReadReg(R5)  returns 0x00000001 (0000ms, 0582ms total)
T1710 001:552 JLINK_ReadReg(R6)  returns 0x0001AAB8 (0000ms, 0583ms total)
T1710 001:552 JLINK_ReadReg(R7)  returns 0xFFFFFFFF (0000ms, 0583ms total)
T1710 001:552 JLINK_ReadReg(R8)  returns 0xFFFFFFFF (0000ms, 0583ms total)
T1710 001:552 JLINK_ReadReg(R9)  returns 0xFFFFFFFF (0000ms, 0583ms total)
T1710 001:552 JLINK_ReadReg(R10)  returns 0xFFFFFFFF (0000ms, 0583ms total)
T1710 001:552 JLINK_ReadReg(R11)  returns 0xFFFFFFFF (0000ms, 0583ms total)
T1710 001:552 JLINK_ReadReg(R12)  returns 0xFFFFFFFF (0000ms, 0583ms total)
T1710 001:552 JLINK_ReadReg(R13 (SP))  returns 0x20003128 (0000ms, 0583ms total)
T1710 001:552 JLINK_ReadReg(R14)  returns 0x000181D9 (0000ms, 0583ms total)
T1710 001:552 JLINK_ReadReg(R15 (PC))  returns 0x00019ECC (0000ms, 0583ms total)
T1710 001:552 JLINK_ReadReg(XPSR)  returns 0x61000000 (0000ms, 0583ms total)
T1710 001:552 JLINK_ReadReg(MSP)  returns 0x20003128 (0000ms, 0583ms total)
T1710 001:552 JLINK_ReadReg(PSP)  returns 0xFFFFFFFC (0000ms, 0583ms total)
T1710 001:552 JLINK_ReadReg(CFBP)  returns 0x00000000 (0000ms, 0583ms total)
T1710 003:062 JLINK_SetBPEx(Addr = 0x0001958C, Type = 0xFFFFFFF2)  returns 0x00000003 (0000ms, 0583ms total)
T1710 003:062 JLINK_Go() -- CPU_WriteMem(4 bytes @ 0xE0002000) -- CPU_WriteMem(4 bytes @ 0xE0002008) -- CPU_WriteMem(4 bytes @ 0xE000200C) (0004ms, 0587ms total)
T1710 003:166 JLINK_IsHalted()  returns FALSE (0000ms, 0587ms total)
T1710 003:266 JLINK_IsHalted()  returns FALSE (0000ms, 0587ms total)
T1710 003:366 JLINK_IsHalted()  returns FALSE (0000ms, 0587ms total)
T1710 003:466 JLINK_IsHalted()  returns TRUE (0003ms, 0590ms total)
T1710 003:470 JLINK_Halt()  returns 0x00 (0000ms, 0587ms total)
T1710 003:470 JLINK_IsHalted()  returns TRUE (0000ms, 0587ms total)
T1710 003:470 JLINK_IsHalted()  returns TRUE (0000ms, 0587ms total)
T1710 003:470 JLINK_IsHalted()  returns TRUE (0000ms, 0587ms total)
T1710 003:470 JLINK_ReadReg(R15 (PC))  returns 0x0001958C (0000ms, 0587ms total)
T1710 003:470 JLINK_ReadReg(XPSR)  returns 0x21000000 (0000ms, 0587ms total)
T1710 003:470 JLINK_ClrBPEx(BPHandle = 0x00000003)  returns 0x00 (0000ms, 0587ms total)
T1710 003:470 JLINK_ReadMemU32(0xE000ED30, 0x0001 Items, ...) -- CPU_ReadMem(4 bytes @ 0xE000ED30) - Data: 03 00 00 00  returns 0x01 (0000ms, 0587ms total)
T1710 003:470 JLINK_ReadMemU32(0xE0001028, 0x0001 Items, ...) -- CPU_ReadMem(4 bytes @ 0xE0001028) - Data: 00 00 00 00  returns 0x01 (0001ms, 0588ms total)
T1710 003:471 JLINK_ReadMemU32(0xE0001038, 0x0001 Items, ...) -- CPU_ReadMem(4 bytes @ 0xE0001038) - Data: 00 00 00 00  returns 0x01 (0000ms, 0588ms total)
T1710 003:471 JLINK_ReadReg(R0)  returns 0x00000003 (0000ms, 0588ms total)
T1710 003:471 JLINK_ReadReg(R1)  returns 0x00000CCD (0000ms, 0588ms total)
T1710 003:471 JLINK_ReadReg(R2)  returns 0x00000000 (0000ms, 0588ms total)
T1710 003:471 JLINK_ReadReg(R3)  returns 0x00000700 (0000ms, 0588ms total)
T1710 003:471 JLINK_ReadReg(R4)  returns 0x0001AAB8 (0000ms, 0588ms total)
T1710 003:471 JLINK_ReadReg(R5)  returns 0x00000001 (0000ms, 0588ms total)
T1710 003:471 JLINK_ReadReg(R6)  returns 0x0001AAB8 (0000ms, 0588ms total)
T1710 003:471 JLINK_ReadReg(R7)  returns 0xFFFFFFFF (0000ms, 0588ms total)
T1710 003:471 JLINK_ReadReg(R8)  returns 0xFFFFFFFF (0000ms, 0588ms total)
T1710 003:471 JLINK_ReadReg(R9)  returns 0xFFFFFFFF (0000ms, 0588ms total)
T1710 003:472 JLINK_ReadReg(R10)  returns 0xFFFFFFFF (0000ms, 0588ms total)
T1710 003:472 JLINK_ReadReg(R11)  returns 0xFFFFFFFF (0000ms, 0588ms total)
T1710 003:472 JLINK_ReadReg(R12)  returns 0xFFFFFFFF (0000ms, 0588ms total)
T1710 003:472 JLINK_ReadReg(R13 (SP))  returns 0x20003100 (0000ms, 0588ms total)
T1710 003:472 JLINK_ReadReg(R14)  returns 0x00019FB5 (0000ms, 0588ms total)
T1710 003:472 JLINK_ReadReg(R15 (PC))  returns 0x0001958C (0000ms, 0588ms total)
T1710 003:472 JLINK_ReadReg(XPSR)  returns 0x21000000 (0000ms, 0588ms total)
T1710 003:472 JLINK_ReadReg(MSP)  returns 0x20003100 (0000ms, 0588ms total)
T1710 003:472 JLINK_ReadReg(PSP)  returns 0xFFFFFFFC (0000ms, 0588ms total)
T1710 003:472 JLINK_ReadReg(CFBP)  returns 0x00000000 (0000ms, 0588ms total)
T0ED8 003:472 JLINK_ReadMem (0x20003124, 0x0004 Bytes, ...) -- CPU_ReadMem(64 bytes @ 0x20003100) -- Updating C cache (64 bytes @ 0x20003100) -- Read from C cache (4 bytes @ 0x20003124) - Data: E7 9E 01 00  returns 0x00 (0001ms, 0589ms total)
T0ED8 003:473 JLINK_ReadMem (0x00000000, 0x0004 Bytes, ...) -- CPU_ReadMem(64 bytes @ 0x00000000) -- Updating C cache (64 bytes @ 0x00000000) -- Read from C cache (4 bytes @ 0x00000000) - Data: C0 07 00 00  returns 0x00 (0002ms, 0591ms total)
T1710 007:358 JLINK_ReadMem (0x0001958C, 0x003C Bytes, ...) -- CPU_ReadMem(128 bytes @ 0x00019580) -- Updating C cache (128 bytes @ 0x00019580) -- Read from C cache (60 bytes @ 0x0001958C) - Data: F8 B5 06 46 24 48 00 24 86 60 C2 60 41 60 0F 46 ...  returns 0x00 (0005ms, 0596ms total)
T1710 007:363 JLINK_Step() -- Read from C cache (2 bytes @ 0x0001958C) -- CPU_ReadMem(4 bytes @ 0xE0001004) -- CPU_WriteMem(24 bytes @ 0x200030E8) -- Simulated  returns 0x00 (0002ms, 0598ms total)
T1710 007:365 JLINK_ReadReg(R15 (PC))  returns 0x0001958E (0000ms, 0598ms total)
T1710 007:365 JLINK_ReadReg(XPSR)  returns 0x21000000 (0000ms, 0598ms total)
T1710 007:365 JLINK_Step() -- Read from C cache (2 bytes @ 0x0001958E) -- Simulated  returns 0x00 (0000ms, 0598ms total)
T1710 007:365 JLINK_ReadReg(R15 (PC))  returns 0x00019590 (0000ms, 0598ms total)
T1710 007:365 JLINK_ReadReg(XPSR)  returns 0x21000000 (0000ms, 0598ms total)
T1710 007:365 JLINK_ReadReg(R0)  returns 0x00000003 (0000ms, 0598ms total)
T1710 007:365 JLINK_ReadReg(R1)  returns 0x00000CCD (0000ms, 0598ms total)
T1710 007:365 JLINK_ReadReg(R2)  returns 0x00000000 (0000ms, 0598ms total)
T1710 007:365 JLINK_ReadReg(R3)  returns 0x00000700 (0000ms, 0598ms total)
T1710 007:365 JLINK_ReadReg(R4)  returns 0x0001AAB8 (0000ms, 0598ms total)
T1710 007:365 JLINK_ReadReg(R5)  returns 0x00000001 (0000ms, 0598ms total)
T1710 007:365 JLINK_ReadReg(R6)  returns 0x00000003 (0000ms, 0598ms total)
T1710 007:365 JLINK_ReadReg(R7)  returns 0xFFFFFFFF (0000ms, 0598ms total)
T1710 007:365 JLINK_ReadReg(R8)  returns 0xFFFFFFFF (0000ms, 0598ms total)
T1710 007:365 JLINK_ReadReg(R9)  returns 0xFFFFFFFF (0001ms, 0599ms total)
T1710 007:366 JLINK_ReadReg(R10)  returns 0xFFFFFFFF (0000ms, 0599ms total)
T1710 007:366 JLINK_ReadReg(R11)  returns 0xFFFFFFFF (0000ms, 0599ms total)
T1710 007:366 JLINK_ReadReg(R12)  returns 0xFFFFFFFF (0000ms, 0599ms total)
T1710 007:366 JLINK_ReadReg(R13 (SP))  returns 0x200030E8 (0000ms, 0599ms total)
T1710 007:366 JLINK_ReadReg(R14)  returns 0x00019FB5 (0000ms, 0599ms total)
T1710 007:366 JLINK_ReadReg(R15 (PC))  returns 0x00019590 (0000ms, 0599ms total)
T1710 007:366 JLINK_ReadReg(XPSR)  returns 0x21000000 (0000ms, 0599ms total)
T1710 007:366 JLINK_ReadReg(MSP)  returns 0x200030E8 (0000ms, 0599ms total)
T1710 007:366 JLINK_ReadReg(PSP)  returns 0xFFFFFFFC (0000ms, 0599ms total)
T1710 007:366 JLINK_ReadReg(CFBP)  returns 0x00000000 (0000ms, 0599ms total)
T0ED8 007:366 JLINK_ReadMem (0x200030FC, 0x0004 Bytes, ...) -- CPU_ReadMem(64 bytes @ 0x200030C0) -- Updating C cache (64 bytes @ 0x200030C0) -- Read from C cache (4 bytes @ 0x200030FC) - Data: B5 9F 01 00  returns 0x00 (0001ms, 0600ms total)
T0ED8 007:367 JLINK_ReadMem (0x200030EC, 0x0004 Bytes, ...) -- Read from C cache (4 bytes @ 0x200030EC) - Data: B8 AA 01 00  returns 0x00 (0000ms, 0600ms total)
T0ED8 007:367 JLINK_ReadMem (0x200030F0, 0x0004 Bytes, ...) -- Read from C cache (4 bytes @ 0x200030F0) - Data: 01 00 00 00  returns 0x00 (0000ms, 0600ms total)
T0ED8 007:367 JLINK_ReadMem (0x200030F4, 0x0004 Bytes, ...) -- Read from C cache (4 bytes @ 0x200030F4) - Data: B8 AA 01 00  returns 0x00 (0000ms, 0600ms total)
T0ED8 007:367 JLINK_ReadMem (0x200030F8, 0x0004 Bytes, ...) -- Read from C cache (4 bytes @ 0x200030F8) - Data: FF FF FF FF  returns 0x00 (0001ms, 0601ms total)
T0ED8 007:368 JLINK_ReadMem (0x20003124, 0x0004 Bytes, ...) -- Read from C cache (4 bytes @ 0x20003124) - Data: E7 9E 01 00  returns 0x00 (0000ms, 0601ms total)
T0ED8 007:368 JLINK_ReadMem (0x00000000, 0x0004 Bytes, ...) -- Read from C cache (4 bytes @ 0x00000000) - Data: C0 07 00 00  returns 0x00 (0000ms, 0601ms total)
T1710 007:606 JLINK_ReadMem (0x00019590, 0x003C Bytes, ...) -- Read from C cache (60 bytes @ 0x00019590) - Data: 24 48 00 24 86 60 C2 60 41 60 0F 46 B0 07 25 D5 ...  returns 0x00 (0000ms, 0601ms total)
T1710 007:606 JLINK_Step() -- Read from C cache (2 bytes @ 0x00019590) -- CPU_ReadMem(64 bytes @ 0x00019600) -- Updating C cache (64 bytes @ 0x00019600) -- Read from C cache (4 bytes @ 0x00019624) -- Simulated  returns 0x00 (0001ms, 0602ms total)
T1710 007:607 JLINK_ReadReg(R15 (PC))  returns 0x00019592 (0000ms, 0602ms total)
T1710 007:607 JLINK_ReadReg(XPSR)  returns 0x21000000 (0000ms, 0602ms total)
T1710 007:607 JLINK_ReadReg(R0)  returns 0x2000202C (0000ms, 0602ms total)
T1710 007:607 JLINK_ReadReg(R1)  returns 0x00000CCD (0000ms, 0602ms total)
T1710 007:607 JLINK_ReadReg(R2)  returns 0x00000000 (0000ms, 0602ms total)
T1710 007:607 JLINK_ReadReg(R3)  returns 0x00000700 (0000ms, 0602ms total)
T1710 007:607 JLINK_ReadReg(R4)  returns 0x0001AAB8 (0000ms, 0602ms total)
T1710 007:607 JLINK_ReadReg(R5)  returns 0x00000001 (0000ms, 0602ms total)
T1710 007:607 JLINK_ReadReg(R6)  returns 0x00000003 (0001ms, 0603ms total)
T1710 007:608 JLINK_ReadReg(R7)  returns 0xFFFFFFFF (0000ms, 0603ms total)
T1710 007:608 JLINK_ReadReg(R8)  returns 0xFFFFFFFF (0000ms, 0603ms total)
T1710 007:608 JLINK_ReadReg(R9)  returns 0xFFFFFFFF (0000ms, 0603ms total)
T1710 007:608 JLINK_ReadReg(R10)  returns 0xFFFFFFFF (0000ms, 0603ms total)
T1710 007:608 JLINK_ReadReg(R11)  returns 0xFFFFFFFF (0000ms, 0603ms total)
T1710 007:608 JLINK_ReadReg(R12)  returns 0xFFFFFFFF (0000ms, 0603ms total)
T1710 007:608 JLINK_ReadReg(R13 (SP))  returns 0x200030E8 (0000ms, 0603ms total)
T1710 007:608 JLINK_ReadReg(R14)  returns 0x00019FB5 (0000ms, 0603ms total)
T1710 007:608 JLINK_ReadReg(R15 (PC))  returns 0x00019592 (0000ms, 0603ms total)
T1710 007:608 JLINK_ReadReg(XPSR)  returns 0x21000000 (0000ms, 0603ms total)
T1710 007:608 JLINK_ReadReg(MSP)  returns 0x200030E8 (0000ms, 0603ms total)
T1710 007:608 JLINK_ReadReg(PSP)  returns 0xFFFFFFFC (0000ms, 0603ms total)
T1710 007:608 JLINK_ReadReg(CFBP)  returns 0x00000000 (0000ms, 0603ms total)
T0ED8 007:608 JLINK_ReadMem (0x200030FC, 0x0004 Bytes, ...) -- Read from C cache (4 bytes @ 0x200030FC) - Data: B5 9F 01 00  returns 0x00 (0000ms, 0603ms total)
T0ED8 007:608 JLINK_ReadMem (0x200030EC, 0x0004 Bytes, ...) -- Read from C cache (4 bytes @ 0x200030EC) - Data: B8 AA 01 00  returns 0x00 (0000ms, 0603ms total)
T0ED8 007:608 JLINK_ReadMem (0x200030F0, 0x0004 Bytes, ...) -- Read from C cache (4 bytes @ 0x200030F0) - Data: 01 00 00 00  returns 0x00 (0000ms, 0603ms total)
T0ED8 007:608 JLINK_ReadMem (0x200030F4, 0x0004 Bytes, ...) -- Read from C cache (4 bytes @ 0x200030F4) - Data: B8 AA 01 00  returns 0x00 (0000ms, 0603ms total)
T0ED8 007:608 JLINK_ReadMem (0x200030F8, 0x0004 Bytes, ...) -- Read from C cache (4 bytes @ 0x200030F8) - Data: FF FF FF FF  returns 0x00 (0000ms, 0603ms total)
T0ED8 007:608 JLINK_ReadMem (0x20003124, 0x0004 Bytes, ...) -- Read from C cache (4 bytes @ 0x20003124) - Data: E7 9E 01 00  returns 0x00 (0000ms, 0603ms total)
T0ED8 007:608 JLINK_ReadMem (0x00000000, 0x0004 Bytes, ...) -- Read from C cache (4 bytes @ 0x00000000) - Data: C0 07 00 00  returns 0x00 (0000ms, 0603ms total)
T1710 007:815 JLINK_ReadMem (0x00019592, 0x0002 Bytes, ...) -- Read from C cache (2 bytes @ 0x00019592) - Data: 00 24  returns 0x00 (0000ms, 0603ms total)
T1710 007:815 JLINK_ReadMem (0x00019594, 0x003C Bytes, ...) -- Read from C cache (60 bytes @ 0x00019594) - Data: 86 60 C2 60 41 60 0F 46 B0 07 25 D5 00 25 01 22 ...  returns 0x00 (0000ms, 0603ms total)
T1710 007:815 JLINK_Step() -- Read from C cache (2 bytes @ 0x00019592) -- Simulated  returns 0x00 (0000ms, 0603ms total)
T1710 007:815 JLINK_ReadReg(R15 (PC))  returns 0x00019594 (0000ms, 0603ms total)
T1710 007:815 JLINK_ReadReg(XPSR)  returns 0x61000000 (0001ms, 0604ms total)
T1710 007:816 JLINK_ReadReg(R0)  returns 0x2000202C (0000ms, 0604ms total)
T1710 007:816 JLINK_ReadReg(R1)  returns 0x00000CCD (0000ms, 0604ms total)
T1710 007:816 JLINK_ReadReg(R2)  returns 0x00000000 (0000ms, 0604ms total)
T1710 007:816 JLINK_ReadReg(R3)  returns 0x00000700 (0000ms, 0604ms total)
T1710 007:816 JLINK_ReadReg(R4)  returns 0x00000000 (0000ms, 0604ms total)
T1710 007:816 JLINK_ReadReg(R5)  returns 0x00000001 (0000ms, 0604ms total)
T1710 007:816 JLINK_ReadReg(R6)  returns 0x00000003 (0000ms, 0604ms total)
T1710 007:816 JLINK_ReadReg(R7)  returns 0xFFFFFFFF (0000ms, 0604ms total)
T1710 007:816 JLINK_ReadReg(R8)  returns 0xFFFFFFFF (0000ms, 0604ms total)
T1710 007:816 JLINK_ReadReg(R9)  returns 0xFFFFFFFF (0000ms, 0604ms total)
T1710 007:816 JLINK_ReadReg(R10)  returns 0xFFFFFFFF (0000ms, 0604ms total)
T1710 007:816 JLINK_ReadReg(R11)  returns 0xFFFFFFFF (0000ms, 0604ms total)
T1710 007:816 JLINK_ReadReg(R12)  returns 0xFFFFFFFF (0000ms, 0604ms total)
T1710 007:816 JLINK_ReadReg(R13 (SP))  returns 0x200030E8 (0000ms, 0604ms total)
T1710 007:816 JLINK_ReadReg(R14)  returns 0x00019FB5 (0000ms, 0604ms total)
T1710 007:816 JLINK_ReadReg(R15 (PC))  returns 0x00019594 (0000ms, 0604ms total)
T1710 007:816 JLINK_ReadReg(XPSR)  returns 0x61000000 (0000ms, 0604ms total)
T1710 007:816 JLINK_ReadReg(MSP)  returns 0x200030E8 (0000ms, 0604ms total)
T1710 007:816 JLINK_ReadReg(PSP)  returns 0xFFFFFFFC (0000ms, 0604ms total)
T1710 007:816 JLINK_ReadReg(CFBP)  returns 0x00000000 (0000ms, 0604ms total)
T0ED8 007:817 JLINK_ReadMem (0x200030FC, 0x0004 Bytes, ...) -- Read from C cache (4 bytes @ 0x200030FC) - Data: B5 9F 01 00  returns 0x00 (0000ms, 0604ms total)
T0ED8 007:817 JLINK_ReadMem (0x200030EC, 0x0004 Bytes, ...) -- Read from C cache (4 bytes @ 0x200030EC) - Data: B8 AA 01 00  returns 0x00 (0000ms, 0604ms total)
T0ED8 007:817 JLINK_ReadMem (0x200030F0, 0x0004 Bytes, ...) -- Read from C cache (4 bytes @ 0x200030F0) - Data: 01 00 00 00  returns 0x00 (0000ms, 0604ms total)
T0ED8 007:817 JLINK_ReadMem (0x200030F4, 0x0004 Bytes, ...) -- Read from C cache (4 bytes @ 0x200030F4) - Data: B8 AA 01 00  returns 0x00 (0000ms, 0604ms total)
T0ED8 007:817 JLINK_ReadMem (0x200030F8, 0x0004 Bytes, ...) -- Read from C cache (4 bytes @ 0x200030F8) - Data: FF FF FF FF  returns 0x00 (0000ms, 0604ms total)
T0ED8 007:817 JLINK_ReadMem (0x20003124, 0x0004 Bytes, ...) -- Read from C cache (4 bytes @ 0x20003124) - Data: E7 9E 01 00  returns 0x00 (0001ms, 0605ms total)
T0ED8 007:818 JLINK_ReadMem (0x00000000, 0x0004 Bytes, ...) -- Read from C cache (4 bytes @ 0x00000000) - Data: C0 07 00 00  returns 0x00 (0000ms, 0605ms total)
T1710 008:006 JLINK_ReadMem (0x00019594, 0x003C Bytes, ...) -- Read from C cache (60 bytes @ 0x00019594) - Data: 86 60 C2 60 41 60 0F 46 B0 07 25 D5 00 25 01 22 ...  returns 0x00 (0000ms, 0605ms total)
T1710 008:006 JLINK_Step() -- Read from C cache (2 bytes @ 0x00019594) -- CPU_WriteMem(4 bytes @ 0x20002034) -- Simulated  returns 0x00 (0001ms, 0606ms total)
T1710 008:007 JLINK_ReadReg(R15 (PC))  returns 0x00019596 (0000ms, 0606ms total)
T1710 008:007 JLINK_ReadReg(XPSR)  returns 0x61000000 (0000ms, 0606ms total)
T1710 008:007 JLINK_Step() -- Read from C cache (2 bytes @ 0x00019596) -- CPU_WriteMem(4 bytes @ 0x20002038) -- Simulated  returns 0x00 (0001ms, 0607ms total)
T1710 008:008 JLINK_ReadReg(R15 (PC))  returns 0x00019598 (0000ms, 0607ms total)
T1710 008:008 JLINK_ReadReg(XPSR)  returns 0x61000000 (0000ms, 0607ms total)
T1710 008:008 JLINK_Step() -- Read from C cache (2 bytes @ 0x00019598) -- CPU_WriteMem(4 bytes @ 0x20002030) -- Simulated  returns 0x00 (0000ms, 0607ms total)
T1710 008:008 JLINK_ReadReg(R15 (PC))  returns 0x0001959A (0000ms, 0607ms total)
T1710 008:008 JLINK_ReadReg(XPSR)  returns 0x61000000 (0000ms, 0607ms total)
T1710 008:008 JLINK_Step() -- Read from C cache (2 bytes @ 0x0001959A) -- Simulated  returns 0x00 (0000ms, 0607ms total)
T1710 008:008 JLINK_ReadReg(R15 (PC))  returns 0x0001959C (0000ms, 0607ms total)
T1710 008:008 JLINK_ReadReg(XPSR)  returns 0x61000000 (0000ms, 0607ms total)
T1710 008:008 JLINK_Step() -- Read from C cache (2 bytes @ 0x0001959C) -- Simulated  returns 0x00 (0000ms, 0607ms total)
T1710 008:008 JLINK_ReadReg(R15 (PC))  returns 0x0001959E (0000ms, 0607ms total)
T1710 008:008 JLINK_ReadReg(XPSR)  returns 0x81000000 (0000ms, 0607ms total)
T1710 008:008 JLINK_Step() -- Read from C cache (2 bytes @ 0x0001959E) -- Simulated  returns 0x00 (0000ms, 0607ms total)
T1710 008:008 JLINK_ReadReg(R15 (PC))  returns 0x000195A0 (0000ms, 0607ms total)
T1710 008:008 JLINK_ReadReg(XPSR)  returns 0x81000000 (0000ms, 0607ms total)
T1710 008:008 JLINK_ReadReg(R0)  returns 0xC0000000 (0000ms, 0607ms total)
T1710 008:008 JLINK_ReadReg(R1)  returns 0x00000CCD (0000ms, 0607ms total)
T1710 008:008 JLINK_ReadReg(R2)  returns 0x00000000 (0001ms, 0608ms total)
T1710 008:009 JLINK_ReadReg(R3)  returns 0x00000700 (0000ms, 0608ms total)
T1710 008:009 JLINK_ReadReg(R4)  returns 0x00000000 (0000ms, 0608ms total)
T1710 008:009 JLINK_ReadReg(R5)  returns 0x00000001 (0000ms, 0608ms total)
T1710 008:009 JLINK_ReadReg(R6)  returns 0x00000003 (0000ms, 0608ms total)
T1710 008:009 JLINK_ReadReg(R7)  returns 0x00000CCD (0000ms, 0608ms total)
T1710 008:009 JLINK_ReadReg(R8)  returns 0xFFFFFFFF (0000ms, 0608ms total)
T1710 008:009 JLINK_ReadReg(R9)  returns 0xFFFFFFFF (0000ms, 0608ms total)
T1710 008:009 JLINK_ReadReg(R10)  returns 0xFFFFFFFF (0000ms, 0608ms total)
T1710 008:009 JLINK_ReadReg(R11)  returns 0xFFFFFFFF (0000ms, 0608ms total)
T1710 008:009 JLINK_ReadReg(R12)  returns 0xFFFFFFFF (0000ms, 0608ms total)
T1710 008:009 JLINK_ReadReg(R13 (SP))  returns 0x200030E8 (0000ms, 0608ms total)
T1710 008:009 JLINK_ReadReg(R14)  returns 0x00019FB5 (0000ms, 0608ms total)
T1710 008:009 JLINK_ReadReg(R15 (PC))  returns 0x000195A0 (0000ms, 0608ms total)
T1710 008:009 JLINK_ReadReg(XPSR)  returns 0x81000000 (0000ms, 0608ms total)
T1710 008:009 JLINK_ReadReg(MSP)  returns 0x200030E8 (0000ms, 0608ms total)
T1710 008:009 JLINK_ReadReg(PSP)  returns 0xFFFFFFFC (0000ms, 0608ms total)
T1710 008:009 JLINK_ReadReg(CFBP)  returns 0x00000000 (0000ms, 0608ms total)
T0ED8 008:010 JLINK_ReadMem (0x200030FC, 0x0004 Bytes, ...) -- Read from C cache (4 bytes @ 0x200030FC) - Data: B5 9F 01 00  returns 0x00 (0000ms, 0608ms total)
T0ED8 008:010 JLINK_ReadMem (0x200030EC, 0x0004 Bytes, ...) -- Read from C cache (4 bytes @ 0x200030EC) - Data: B8 AA 01 00  returns 0x00 (0000ms, 0608ms total)
T0ED8 008:010 JLINK_ReadMem (0x200030F0, 0x0004 Bytes, ...) -- Read from C cache (4 bytes @ 0x200030F0) - Data: 01 00 00 00  returns 0x00 (0000ms, 0608ms total)
T0ED8 008:010 JLINK_ReadMem (0x200030F4, 0x0004 Bytes, ...) -- Read from C cache (4 bytes @ 0x200030F4) - Data: B8 AA 01 00  returns 0x00 (0000ms, 0608ms total)
T0ED8 008:010 JLINK_ReadMem (0x200030F8, 0x0004 Bytes, ...) -- Read from C cache (4 bytes @ 0x200030F8) - Data: FF FF FF FF  returns 0x00 (0000ms, 0608ms total)
T0ED8 008:010 JLINK_ReadMem (0x20003124, 0x0004 Bytes, ...) -- Read from C cache (4 bytes @ 0x20003124) - Data: E7 9E 01 00  returns 0x00 (0000ms, 0608ms total)
T0ED8 008:010 JLINK_ReadMem (0x00000000, 0x0004 Bytes, ...) -- Read from C cache (4 bytes @ 0x00000000) - Data: C0 07 00 00  returns 0x00 (0000ms, 0608ms total)
T0ED8 008:014 JLINK_ReadMem (0x000195A0, 0x003C Bytes, ...) -- Read from C cache (60 bytes @ 0x000195A0) - Data: 00 25 01 22 11 46 28 46 FF F7 BE FF 6D 1C 04 46 ...  returns 0x00 (0000ms, 0608ms total)
T1710 008:198 JLINK_Step() -- Read from C cache (2 bytes @ 0x000195A0) -- Simulated  returns 0x00 (0000ms, 0608ms total)
T1710 008:198 JLINK_ReadReg(R15 (PC))  returns 0x000195A2 (0000ms, 0608ms total)
T1710 008:198 JLINK_ReadReg(XPSR)  returns 0x41000000 (0000ms, 0608ms total)
T1710 008:198 JLINK_ReadReg(R0)  returns 0xC0000000 (0000ms, 0608ms total)
T1710 008:198 JLINK_ReadReg(R1)  returns 0x00000CCD (0000ms, 0608ms total)
T1710 008:199 JLINK_ReadReg(R2)  returns 0x00000000 (0000ms, 0609ms total)
T1710 008:199 JLINK_ReadReg(R3)  returns 0x00000700 (0000ms, 0609ms total)
T1710 008:199 JLINK_ReadReg(R4)  returns 0x00000000 (0000ms, 0609ms total)
T1710 008:199 JLINK_ReadReg(R5)  returns 0x00000000 (0000ms, 0609ms total)
T1710 008:199 JLINK_ReadReg(R6)  returns 0x00000003 (0000ms, 0609ms total)
T1710 008:199 JLINK_ReadReg(R7)  returns 0x00000CCD (0000ms, 0609ms total)
T1710 008:199 JLINK_ReadReg(R8)  returns 0xFFFFFFFF (0000ms, 0609ms total)
T1710 008:199 JLINK_ReadReg(R9)  returns 0xFFFFFFFF (0000ms, 0609ms total)
T1710 008:199 JLINK_ReadReg(R10)  returns 0xFFFFFFFF (0000ms, 0609ms total)
T1710 008:199 JLINK_ReadReg(R11)  returns 0xFFFFFFFF (0000ms, 0609ms total)
T1710 008:199 JLINK_ReadReg(R12)  returns 0xFFFFFFFF (0000ms, 0609ms total)
T1710 008:199 JLINK_ReadReg(R13 (SP))  returns 0x200030E8 (0000ms, 0609ms total)
T1710 008:199 JLINK_ReadReg(R14)  returns 0x00019FB5 (0000ms, 0609ms total)
T1710 008:199 JLINK_ReadReg(R15 (PC))  returns 0x000195A2 (0000ms, 0609ms total)
T1710 008:199 JLINK_ReadReg(XPSR)  returns 0x41000000 (0000ms, 0609ms total)
T1710 008:199 JLINK_ReadReg(MSP)  returns 0x200030E8 (0000ms, 0609ms total)
T1710 008:199 JLINK_ReadReg(PSP)  returns 0xFFFFFFFC (0000ms, 0609ms total)
T1710 008:199 JLINK_ReadReg(CFBP)  returns 0x00000000 (0000ms, 0609ms total)
T0ED8 008:200 JLINK_ReadMem (0x200030FC, 0x0004 Bytes, ...) -- Read from C cache (4 bytes @ 0x200030FC) - Data: B5 9F 01 00  returns 0x00 (0000ms, 0609ms total)
T0ED8 008:200 JLINK_ReadMem (0x200030EC, 0x0004 Bytes, ...) -- Read from C cache (4 bytes @ 0x200030EC) - Data: B8 AA 01 00  returns 0x00 (0000ms, 0609ms total)
T0ED8 008:200 JLINK_ReadMem (0x200030F0, 0x0004 Bytes, ...) -- Read from C cache (4 bytes @ 0x200030F0) - Data: 01 00 00 00  returns 0x00 (0000ms, 0609ms total)
T0ED8 008:200 JLINK_ReadMem (0x200030F4, 0x0004 Bytes, ...) -- Read from C cache (4 bytes @ 0x200030F4) - Data: B8 AA 01 00  returns 0x00 (0000ms, 0609ms total)
T0ED8 008:200 JLINK_ReadMem (0x200030F8, 0x0004 Bytes, ...) -- Read from C cache (4 bytes @ 0x200030F8) - Data: FF FF FF FF  returns 0x00 (0000ms, 0609ms total)
T0ED8 008:200 JLINK_ReadMem (0x20003124, 0x0004 Bytes, ...) -- Read from C cache (4 bytes @ 0x20003124) - Data: E7 9E 01 00  returns 0x00 (0000ms, 0609ms total)
T0ED8 008:200 JLINK_ReadMem (0x00000000, 0x0004 Bytes, ...) -- Read from C cache (4 bytes @ 0x00000000) - Data: C0 07 00 00  returns 0x00 (0000ms, 0609ms total)
T0ED8 008:202 JLINK_ReadMem (0x000195A2, 0x0002 Bytes, ...) -- Read from C cache (2 bytes @ 0x000195A2) - Data: 01 22  returns 0x00 (0000ms, 0609ms total)
T0ED8 008:202 JLINK_ReadMem (0x000195A4, 0x003C Bytes, ...) -- Read from C cache (60 bytes @ 0x000195A4) - Data: 11 46 28 46 FF F7 BE FF 6D 1C 04 46 04 2D 02 D2 ...  returns 0x00 (0000ms, 0609ms total)
T1710 008:406 JLINK_Step() -- Read from C cache (2 bytes @ 0x000195A2) -- Simulated  returns 0x00 (0000ms, 0609ms total)
T1710 008:406 JLINK_ReadReg(R15 (PC))  returns 0x000195A4 (0000ms, 0609ms total)
T1710 008:406 JLINK_ReadReg(XPSR)  returns 0x01000000 (0000ms, 0609ms total)
T1710 008:406 JLINK_Step() -- Read from C cache (2 bytes @ 0x000195A4) -- Simulated  returns 0x00 (0001ms, 0610ms total)
T1710 008:407 JLINK_ReadReg(R15 (PC))  returns 0x000195A6 (0000ms, 0610ms total)
T1710 008:407 JLINK_ReadReg(XPSR)  returns 0x01000000 (0000ms, 0610ms total)
T1710 008:407 JLINK_Step() -- Read from C cache (2 bytes @ 0x000195A6) -- Simulated  returns 0x00 (0000ms, 0610ms total)
T1710 008:407 JLINK_ReadReg(R15 (PC))  returns 0x000195A8 (0000ms, 0610ms total)
T1710 008:407 JLINK_ReadReg(XPSR)  returns 0x01000000 (0000ms, 0610ms total)
T1710 008:407 JLINK_SetBPEx(Addr = 0x000195AC, Type = 0xFFFFFFF2)  returns 0x00000004 (0000ms, 0610ms total)
T1710 008:407 JLINK_SetBPEx(Addr = 0x0001958C, Type = 0xFFFFFFF2)  returns 0x00000005 (0000ms, 0610ms total)
T1710 008:407 JLINK_Go() -- CPU_WriteMem(4 bytes @ 0xE0002000) -- CPU_WriteMem(4 bytes @ 0xE0002000) -- CPU_WriteMem(4 bytes @ 0xE0002008) -- CPU_WriteMem(4 bytes @ 0xE000200C) -- CPU_WriteMem(4 bytes @ 0xE0001004) (0005ms, 0615ms total)
T1710 008:512 JLINK_IsHalted()  returns TRUE (0004ms, 0619ms total)
T1710 008:516 JLINK_Halt()  returns 0x00 (0000ms, 0615ms total)
T1710 008:516 JLINK_IsHalted()  returns TRUE (0000ms, 0615ms total)
T1710 008:516 JLINK_IsHalted()  returns TRUE (0000ms, 0615ms total)
T1710 008:516 JLINK_IsHalted()  returns TRUE (0000ms, 0615ms total)
T1710 008:516 JLINK_ReadReg(R15 (PC))  returns 0x000195AC (0000ms, 0615ms total)
T1710 008:516 JLINK_ReadReg(XPSR)  returns 0x01000000 (0000ms, 0615ms total)
T1710 008:516 JLINK_ClrBPEx(BPHandle = 0x00000004)  returns 0x00 (0000ms, 0615ms total)
T1710 008:516 JLINK_ClrBPEx(BPHandle = 0x00000005)  returns 0x00 (0000ms, 0615ms total)
T1710 008:516 JLINK_ReadMemU32(0xE000ED30, 0x0001 Items, ...) -- CPU_ReadMem(4 bytes @ 0xE000ED30) - Data: 03 00 00 00  returns 0x01 (0001ms, 0616ms total)
T1710 008:517 JLINK_ReadMemU32(0xE0001028, 0x0001 Items, ...) -- CPU_ReadMem(4 bytes @ 0xE0001028) - Data: 00 00 00 00  returns 0x01 (0001ms, 0617ms total)
T1710 008:518 JLINK_ReadMemU32(0xE0001038, 0x0001 Items, ...) -- CPU_ReadMem(4 bytes @ 0xE0001038) - Data: 00 00 00 00  returns 0x01 (0000ms, 0617ms total)
T1710 008:519 JLINK_ReadReg(R0)  returns 0x00000000 (0000ms, 0617ms total)
T1710 008:519 JLINK_ReadReg(R1)  returns 0x00000001 (0000ms, 0617ms total)
T1710 008:519 JLINK_ReadReg(R2)  returns 0x0000000D (0000ms, 0617ms total)
T1710 008:519 JLINK_ReadReg(R3)  returns 0x00000000 (0000ms, 0617ms total)
T1710 008:519 JLINK_ReadReg(R4)  returns 0x00000000 (0000ms, 0617ms total)
T1710 008:519 JLINK_ReadReg(R5)  returns 0x00000000 (0000ms, 0617ms total)
T1710 008:519 JLINK_ReadReg(R6)  returns 0x00000003 (0000ms, 0617ms total)
T1710 008:519 JLINK_ReadReg(R7)  returns 0x00000CCD (0000ms, 0617ms total)
T1710 008:519 JLINK_ReadReg(R8)  returns 0xFFFFFFFF (0000ms, 0617ms total)
T1710 008:519 JLINK_ReadReg(R9)  returns 0xFFFFFFFF (0000ms, 0617ms total)
T1710 008:519 JLINK_ReadReg(R10)  returns 0xFFFFFFFF (0000ms, 0617ms total)
T1710 008:519 JLINK_ReadReg(R11)  returns 0xFFFFFFFF (0000ms, 0617ms total)
T1710 008:519 JLINK_ReadReg(R12)  returns 0xFFFFFFFF (0000ms, 0617ms total)
T1710 008:519 JLINK_ReadReg(R13 (SP))  returns 0x200030E8 (0000ms, 0617ms total)
T1710 008:519 JLINK_ReadReg(R14)  returns 0x000195AD (0000ms, 0617ms total)
T1710 008:519 JLINK_ReadReg(R15 (PC))  returns 0x000195AC (0000ms, 0617ms total)
T1710 008:519 JLINK_ReadReg(XPSR)  returns 0x01000000 (0000ms, 0617ms total)
T1710 008:519 JLINK_ReadReg(MSP)  returns 0x200030E8 (0000ms, 0617ms total)
T1710 008:519 JLINK_ReadReg(PSP)  returns 0xFFFFFFFC (0000ms, 0617ms total)
T1710 008:519 JLINK_ReadReg(CFBP)  returns 0x00000000 (0000ms, 0617ms total)
T0ED8 008:519 JLINK_ReadMem (0x200030FC, 0x0004 Bytes, ...) -- CPU_ReadMem(64 bytes @ 0x200030C0) -- Updating C cache (64 bytes @ 0x200030C0) -- Read from C cache (4 bytes @ 0x200030FC) - Data: B5 9F 01 00  returns 0x00 (0002ms, 0619ms total)
T0ED8 008:521 JLINK_ReadMem (0x200030EC, 0x0004 Bytes, ...) -- Read from C cache (4 bytes @ 0x200030EC) - Data: B8 AA 01 00  returns 0x00 (0000ms, 0619ms total)
T0ED8 008:521 JLINK_ReadMem (0x200030F0, 0x0004 Bytes, ...) -- Read from C cache (4 bytes @ 0x200030F0) - Data: 01 00 00 00  returns 0x00 (0000ms, 0619ms total)
T0ED8 008:521 JLINK_ReadMem (0x200030F4, 0x0004 Bytes, ...) -- Read from C cache (4 bytes @ 0x200030F4) - Data: B8 AA 01 00  returns 0x00 (0000ms, 0619ms total)
T0ED8 008:521 JLINK_ReadMem (0x200030F8, 0x0004 Bytes, ...) -- Read from C cache (4 bytes @ 0x200030F8) - Data: FF FF FF FF  returns 0x00 (0000ms, 0619ms total)
T0ED8 008:521 JLINK_ReadMem (0x20003124, 0x0004 Bytes, ...) -- CPU_ReadMem(64 bytes @ 0x20003100) -- Updating C cache (64 bytes @ 0x20003100) -- Read from C cache (4 bytes @ 0x20003124) - Data: E7 9E 01 00  returns 0x00 (0001ms, 0620ms total)
T0ED8 008:522 JLINK_ReadMem (0x00000000, 0x0004 Bytes, ...) -- CPU_ReadMem(64 bytes @ 0x00000000) -- Updating C cache (64 bytes @ 0x00000000) -- Read from C cache (4 bytes @ 0x00000000) - Data: C0 07 00 00  returns 0x00 (0002ms, 0622ms total)
T0ED8 008:526 JLINK_ReadMem (0x000195AC, 0x003C Bytes, ...) -- CPU_ReadMem(128 bytes @ 0x00019580) -- Updating C cache (128 bytes @ 0x00019580) -- Read from C cache (60 bytes @ 0x000195AC) - Data: 6D 1C 04 46 04 2D 02 D2 00 2C F4 D0 18 E0 00 2C ...  returns 0x00 (0002ms, 0624ms total)
T1710 008:606 JLINK_Step() -- Read from C cache (2 bytes @ 0x000195AC) -- CPU_ReadMem(4 bytes @ 0xE0001004) -- Simulated  returns 0x00 (0000ms, 0624ms total)
T1710 008:606 JLINK_ReadReg(R15 (PC))  returns 0x000195AE (0001ms, 0625ms total)
T1710 008:607 JLINK_ReadReg(XPSR)  returns 0x01000000 (0000ms, 0625ms total)
T1710 008:607 JLINK_Step() -- Read from C cache (2 bytes @ 0x000195AE) -- Simulated  returns 0x00 (0000ms, 0625ms total)
T1710 008:607 JLINK_ReadReg(R15 (PC))  returns 0x000195B0 (0000ms, 0625ms total)
T1710 008:607 JLINK_ReadReg(XPSR)  returns 0x01000000 (0000ms, 0625ms total)
T1710 008:607 JLINK_Step() -- Read from C cache (2 bytes @ 0x000195B0) -- Simulated  returns 0x00 (0000ms, 0625ms total)
T1710 008:607 JLINK_ReadReg(R15 (PC))  returns 0x000195B2 (0000ms, 0625ms total)
T1710 008:607 JLINK_ReadReg(XPSR)  returns 0x81000000 (0000ms, 0625ms total)
T1710 008:607 JLINK_Step() -- Read from C cache (2 bytes @ 0x000195B2) -- Simulated  returns 0x00 (0000ms, 0625ms total)
T1710 008:607 JLINK_ReadReg(R15 (PC))  returns 0x000195B4 (0000ms, 0625ms total)
T1710 008:607 JLINK_ReadReg(XPSR)  returns 0x81000000 (0000ms, 0625ms total)
T1710 008:607 JLINK_Step() -- Read from C cache (2 bytes @ 0x000195B4) -- Simulated  returns 0x00 (0000ms, 0625ms total)
T1710 008:607 JLINK_ReadReg(R15 (PC))  returns 0x000195B6 (0000ms, 0625ms total)
T1710 008:607 JLINK_ReadReg(XPSR)  returns 0x61000000 (0000ms, 0625ms total)
T1710 008:607 JLINK_Step() -- Read from C cache (2 bytes @ 0x000195B6) -- Simulated  returns 0x00 (0000ms, 0625ms total)
T1710 008:607 JLINK_ReadReg(R15 (PC))  returns 0x000195A2 (0000ms, 0625ms total)
T1710 008:607 JLINK_ReadReg(XPSR)  returns 0x61000000 (0000ms, 0625ms total)
T1710 008:607 JLINK_ReadReg(R0)  returns 0x00000000 (0000ms, 0625ms total)
T1710 008:607 JLINK_ReadReg(R1)  returns 0x00000001 (0000ms, 0625ms total)
T1710 008:607 JLINK_ReadReg(R2)  returns 0x0000000D (0000ms, 0625ms total)
T1710 008:607 JLINK_ReadReg(R3)  returns 0x00000000 (0000ms, 0625ms total)
T1710 008:607 JLINK_ReadReg(R4)  returns 0x00000000 (0000ms, 0625ms total)
T1710 008:607 JLINK_ReadReg(R5)  returns 0x00000001 (0000ms, 0625ms total)
T1710 008:607 JLINK_ReadReg(R6)  returns 0x00000003 (0000ms, 0625ms total)
T1710 008:607 JLINK_ReadReg(R7)  returns 0x00000CCD (0000ms, 0625ms total)
T1710 008:607 JLINK_ReadReg(R8)  returns 0xFFFFFFFF (0000ms, 0625ms total)
T1710 008:607 JLINK_ReadReg(R9)  returns 0xFFFFFFFF (0000ms, 0625ms total)
T1710 008:607 JLINK_ReadReg(R10)  returns 0xFFFFFFFF (0000ms, 0625ms total)
T1710 008:607 JLINK_ReadReg(R11)  returns 0xFFFFFFFF (0000ms, 0625ms total)
T1710 008:607 JLINK_ReadReg(R12)  returns 0xFFFFFFFF (0000ms, 0625ms total)
T1710 008:607 JLINK_ReadReg(R13 (SP))  returns 0x200030E8 (0000ms, 0625ms total)
T1710 008:607 JLINK_ReadReg(R14)  returns 0x000195AD (0000ms, 0625ms total)
T1710 008:607 JLINK_ReadReg(R15 (PC))  returns 0x000195A2 (0000ms, 0625ms total)
T1710 008:607 JLINK_ReadReg(XPSR)  returns 0x61000000 (0000ms, 0625ms total)
T1710 008:607 JLINK_ReadReg(MSP)  returns 0x200030E8 (0000ms, 0625ms total)
T1710 008:607 JLINK_ReadReg(PSP)  returns 0xFFFFFFFC (0000ms, 0625ms total)
T1710 008:607 JLINK_ReadReg(CFBP)  returns 0x00000000 (0000ms, 0625ms total)
T0ED8 008:608 JLINK_ReadMem (0x200030FC, 0x0004 Bytes, ...) -- Read from C cache (4 bytes @ 0x200030FC) - Data: B5 9F 01 00  returns 0x00 (0000ms, 0625ms total)
T0ED8 008:608 JLINK_ReadMem (0x200030EC, 0x0004 Bytes, ...) -- Read from C cache (4 bytes @ 0x200030EC) - Data: B8 AA 01 00  returns 0x00 (0000ms, 0625ms total)
T0ED8 008:608 JLINK_ReadMem (0x200030F0, 0x0004 Bytes, ...) -- Read from C cache (4 bytes @ 0x200030F0) - Data: 01 00 00 00  returns 0x00 (0000ms, 0625ms total)
T0ED8 008:608 JLINK_ReadMem (0x200030F4, 0x0004 Bytes, ...) -- Read from C cache (4 bytes @ 0x200030F4) - Data: B8 AA 01 00  returns 0x00 (0000ms, 0625ms total)
T0ED8 008:608 JLINK_ReadMem (0x200030F8, 0x0004 Bytes, ...) -- Read from C cache (4 bytes @ 0x200030F8) - Data: FF FF FF FF  returns 0x00 (0000ms, 0625ms total)
T0ED8 008:608 JLINK_ReadMem (0x20003124, 0x0004 Bytes, ...) -- Read from C cache (4 bytes @ 0x20003124) - Data: E7 9E 01 00  returns 0x00 (0000ms, 0625ms total)
T0ED8 008:608 JLINK_ReadMem (0x00000000, 0x0004 Bytes, ...) -- Read from C cache (4 bytes @ 0x00000000) - Data: C0 07 00 00  returns 0x00 (0000ms, 0625ms total)
T0ED8 008:610 JLINK_ReadMem (0x000195A2, 0x0002 Bytes, ...) -- Read from C cache (2 bytes @ 0x000195A2) - Data: 01 22  returns 0x00 (0000ms, 0625ms total)
T0ED8 008:610 JLINK_ReadMem (0x000195A4, 0x003C Bytes, ...) -- Read from C cache (60 bytes @ 0x000195A4) - Data: 11 46 28 46 FF F7 BE FF 6D 1C 04 46 04 2D 02 D2 ...  returns 0x00 (0001ms, 0626ms total)
T1710 009:566 JLINK_Step() -- Read from C cache (2 bytes @ 0x000195A2) -- Simulated  returns 0x00 (0001ms, 0627ms total)
T1710 009:567 JLINK_ReadReg(R15 (PC))  returns 0x000195A4 (0000ms, 0627ms total)
T1710 009:567 JLINK_ReadReg(XPSR)  returns 0x21000000 (0000ms, 0627ms total)
T1710 009:567 JLINK_Step() -- Read from C cache (2 bytes @ 0x000195A4) -- Simulated  returns 0x00 (0000ms, 0627ms total)
T1710 009:567 JLINK_ReadReg(R15 (PC))  returns 0x000195A6 (0000ms, 0627ms total)
T1710 009:567 JLINK_ReadReg(XPSR)  returns 0x21000000 (0000ms, 0627ms total)
T1710 009:567 JLINK_Step() -- Read from C cache (2 bytes @ 0x000195A6) -- Simulated  returns 0x00 (0000ms, 0627ms total)
T1710 009:567 JLINK_ReadReg(R15 (PC))  returns 0x000195A8 (0000ms, 0627ms total)
T1710 009:567 JLINK_ReadReg(XPSR)  returns 0x21000000 (0000ms, 0627ms total)
T1710 009:567 JLINK_SetBPEx(Addr = 0x000195AC, Type = 0xFFFFFFF2)  returns 0x00000006 (0000ms, 0627ms total)
T1710 009:567 JLINK_SetBPEx(Addr = 0x0001958C, Type = 0xFFFFFFF2)  returns 0x00000007 (0000ms, 0627ms total)
T1710 009:567 JLINK_Go() -- CPU_WriteMem(4 bytes @ 0xE0002000) -- CPU_WriteMem(4 bytes @ 0xE0002000) -- CPU_WriteMem(4 bytes @ 0xE0001004) (0003ms, 0630ms total)
T1710 009:670 JLINK_IsHalted()  returns TRUE (0004ms, 0634ms total)
T1710 009:674 JLINK_Halt()  returns 0x00 (0000ms, 0630ms total)
T1710 009:674 JLINK_IsHalted()  returns TRUE (0000ms, 0630ms total)
T1710 009:674 JLINK_IsHalted()  returns TRUE (0000ms, 0630ms total)
T1710 009:674 JLINK_IsHalted()  returns TRUE (0000ms, 0630ms total)
T1710 009:674 JLINK_ReadReg(R15 (PC))  returns 0x000195AC (0000ms, 0630ms total)
T1710 009:674 JLINK_ReadReg(XPSR)  returns 0x01000000 (0000ms, 0630ms total)
T1710 009:674 JLINK_ClrBPEx(BPHandle = 0x00000006)  returns 0x00 (0000ms, 0630ms total)
T1710 009:674 JLINK_ClrBPEx(BPHandle = 0x00000007)  returns 0x00 (0000ms, 0630ms total)
T1710 009:674 JLINK_ReadMemU32(0xE000ED30, 0x0001 Items, ...) -- CPU_ReadMem(4 bytes @ 0xE000ED30) - Data: 03 00 00 00  returns 0x01 (0001ms, 0631ms total)
T1710 009:675 JLINK_ReadMemU32(0xE0001028, 0x0001 Items, ...) -- CPU_ReadMem(4 bytes @ 0xE0001028) - Data: 00 00 00 00  returns 0x01 (0001ms, 0632ms total)
T1710 009:676 JLINK_ReadMemU32(0xE0001038, 0x0001 Items, ...) -- CPU_ReadMem(4 bytes @ 0xE0001038) - Data: 00 00 00 00  returns 0x01 (0000ms, 0632ms total)
T1710 009:676 JLINK_ReadReg(R0)  returns 0x00000000 (0000ms, 0632ms total)
T1710 009:676 JLINK_ReadReg(R1)  returns 0x00000001 (0000ms, 0632ms total)
T1710 009:676 JLINK_ReadReg(R2)  returns 0x0000000E (0000ms, 0632ms total)
T1710 009:676 JLINK_ReadReg(R3)  returns 0x00000000 (0000ms, 0632ms total)
T1710 009:676 JLINK_ReadReg(R4)  returns 0x00000000 (0000ms, 0632ms total)
T1710 009:676 JLINK_ReadReg(R5)  returns 0x00000001 (0000ms, 0632ms total)
T1710 009:676 JLINK_ReadReg(R6)  returns 0x00000003 (0001ms, 0633ms total)
T1710 009:677 JLINK_ReadReg(R7)  returns 0x00000CCD (0000ms, 0633ms total)
T1710 009:677 JLINK_ReadReg(R8)  returns 0xFFFFFFFF (0000ms, 0633ms total)
T1710 009:677 JLINK_ReadReg(R9)  returns 0xFFFFFFFF (0000ms, 0633ms total)
T1710 009:677 JLINK_ReadReg(R10)  returns 0xFFFFFFFF (0000ms, 0633ms total)
T1710 009:677 JLINK_ReadReg(R11)  returns 0xFFFFFFFF (0000ms, 0633ms total)
T1710 009:677 JLINK_ReadReg(R12)  returns 0xFFFFFFFF (0000ms, 0633ms total)
T1710 009:677 JLINK_ReadReg(R13 (SP))  returns 0x200030E8 (0000ms, 0633ms total)
T1710 009:677 JLINK_ReadReg(R14)  returns 0x000195AD (0000ms, 0633ms total)
T1710 009:677 JLINK_ReadReg(R15 (PC))  returns 0x000195AC (0000ms, 0633ms total)
T1710 009:677 JLINK_ReadReg(XPSR)  returns 0x01000000 (0000ms, 0633ms total)
T1710 009:677 JLINK_ReadReg(MSP)  returns 0x200030E8 (0000ms, 0633ms total)
T1710 009:677 JLINK_ReadReg(PSP)  returns 0xFFFFFFFC (0000ms, 0633ms total)
T1710 009:677 JLINK_ReadReg(CFBP)  returns 0x00000000 (0000ms, 0633ms total)
T0ED8 009:677 JLINK_ReadMem (0x200030FC, 0x0004 Bytes, ...) -- CPU_ReadMem(64 bytes @ 0x200030C0) -- Updating C cache (64 bytes @ 0x200030C0) -- Read from C cache (4 bytes @ 0x200030FC) - Data: B5 9F 01 00  returns 0x00 (0001ms, 0634ms total)
T0ED8 009:678 JLINK_ReadMem (0x200030EC, 0x0004 Bytes, ...) -- Read from C cache (4 bytes @ 0x200030EC) - Data: B8 AA 01 00  returns 0x00 (0000ms, 0634ms total)
T0ED8 009:678 JLINK_ReadMem (0x200030F0, 0x0004 Bytes, ...) -- Read from C cache (4 bytes @ 0x200030F0) - Data: 01 00 00 00  returns 0x00 (0000ms, 0634ms total)
T0ED8 009:678 JLINK_ReadMem (0x200030F4, 0x0004 Bytes, ...) -- Read from C cache (4 bytes @ 0x200030F4) - Data: B8 AA 01 00  returns 0x00 (0000ms, 0634ms total)
T0ED8 009:678 JLINK_ReadMem (0x200030F8, 0x0004 Bytes, ...) -- Read from C cache (4 bytes @ 0x200030F8) - Data: FF FF FF FF  returns 0x00 (0000ms, 0634ms total)
T0ED8 009:678 JLINK_ReadMem (0x20003124, 0x0004 Bytes, ...) -- CPU_ReadMem(64 bytes @ 0x20003100) -- Updating C cache (64 bytes @ 0x20003100) -- Read from C cache (4 bytes @ 0x20003124) - Data: E7 9E 01 00  returns 0x00 (0002ms, 0636ms total)
T0ED8 009:680 JLINK_ReadMem (0x00000000, 0x0004 Bytes, ...) -- CPU_ReadMem(64 bytes @ 0x00000000) -- Updating C cache (64 bytes @ 0x00000000) -- Read from C cache (4 bytes @ 0x00000000) - Data: C0 07 00 00  returns 0x00 (0001ms, 0637ms total)
T0ED8 009:683 JLINK_ReadMem (0x000195AC, 0x003C Bytes, ...) -- CPU_ReadMem(128 bytes @ 0x00019580) -- Updating C cache (128 bytes @ 0x00019580) -- Read from C cache (60 bytes @ 0x000195AC) - Data: 6D 1C 04 46 04 2D 02 D2 00 2C F4 D0 18 E0 00 2C ...  returns 0x00 (0003ms, 0640ms total)
T1710 010:102 JLINK_Step() -- Read from C cache (2 bytes @ 0x000195AC) -- CPU_ReadMem(4 bytes @ 0xE0001004) -- Simulated  returns 0x00 (0000ms, 0640ms total)
T1710 010:102 JLINK_ReadReg(R15 (PC))  returns 0x000195AE (0001ms, 0641ms total)
T1710 010:103 JLINK_ReadReg(XPSR)  returns 0x01000000 (0000ms, 0641ms total)
T1710 010:103 JLINK_Step() -- Read from C cache (2 bytes @ 0x000195AE) -- Simulated  returns 0x00 (0000ms, 0641ms total)
T1710 010:103 JLINK_ReadReg(R15 (PC))  returns 0x000195B0 (0000ms, 0641ms total)
T1710 010:103 JLINK_ReadReg(XPSR)  returns 0x01000000 (0000ms, 0641ms total)
T1710 010:103 JLINK_Step() -- Read from C cache (2 bytes @ 0x000195B0) -- Simulated  returns 0x00 (0000ms, 0641ms total)
T1710 010:103 JLINK_ReadReg(R15 (PC))  returns 0x000195B2 (0000ms, 0641ms total)
T1710 010:103 JLINK_ReadReg(XPSR)  returns 0x81000000 (0000ms, 0641ms total)
T1710 010:103 JLINK_Step() -- Read from C cache (2 bytes @ 0x000195B2) -- Simulated  returns 0x00 (0000ms, 0641ms total)
T1710 010:103 JLINK_ReadReg(R15 (PC))  returns 0x000195B4 (0000ms, 0641ms total)
T1710 010:103 JLINK_ReadReg(XPSR)  returns 0x81000000 (0000ms, 0641ms total)
T1710 010:103 JLINK_Step() -- Read from C cache (2 bytes @ 0x000195B4) -- Simulated  returns 0x00 (0000ms, 0641ms total)
T1710 010:103 JLINK_ReadReg(R15 (PC))  returns 0x000195B6 (0000ms, 0641ms total)
T1710 010:103 JLINK_ReadReg(XPSR)  returns 0x61000000 (0000ms, 0641ms total)
